
**** 05/16/20 19:04:03 *********** Evaluation PSpice (Nov 1999) **************

 * C:\Users\naiar\OneDrive\Documentos\NAIARA\ESTUDIO\TCO\pract\pract6\pract6.1.sch


 ****     CIRCUIT DESCRIPTION


******************************************************************************




* Schematics Version 9.1 - Web Update 1
* Sat May 16 19:04:03 2020



** Analysis setup **
.OP 


* From [PSPICE NETLIST] section of pspiceev.ini:
.lib "nom.lib"

.INC "pract6.1.net"

**** INCLUDING pract6.1.net ****
* Schematics Netlist *



X_U1A         $N_0001 $N_0002 $G_DPWR $G_DGND 7404 PARAMS:
+ IO_LEVEL=0 MNTYMXDLY=0
V_Vi         $N_0001 0 0V
R_RL         $N_0002 $N_0003  22k  
V_Vcc         $N_0003 0 5V

**** RESUMING pract6.1.cir ****
.INC "pract6.1.als"



**** INCLUDING pract6.1.als ****
* Schematics Aliases *

.ALIASES
X_U1A           U1A(A=$N_0001 Y=$N_0002 PWR=$G_DPWR GND=$G_DGND )
V_Vi            Vi(+=$N_0001 -=0 )
R_RL            RL(1=$N_0002 2=$N_0003 )
V_Vcc           Vcc(+=$N_0003 -=0 )
_    _($G_DGND=$G_DGND)
_    _($G_DPWR=$G_DPWR)
.ENDALIASES


**** RESUMING pract6.1.cir ****
.probe


.END


**** Generated AtoD and DtoA Interfaces ****

*
* Analog/Digital interface for node $N_0001
*
* Moving X_U1A.U1:IN1 from analog node $N_0001 to new digital node $N_0001$AtoD
X$$N_0001_AtoD1
+ $N_0001
+ $N_0001$AtoD
+ $G_DPWR
+ $G_DGND
+ AtoD_STD
+       PARAMS: CAPACITANCE=   0     
*
* Analog/Digital interface for node $N_0002
*
* Moving X_U1A.U1:OUT1 from analog node $N_0002 to new digital node $N_0002$DtoA
X$$N_0002_DtoA1
+ $N_0002$DtoA
+ $N_0002
+ $G_DPWR
+ $G_DGND
+ DtoA_STD
+       PARAMS: DRVH=  96.4   DRVL= 104    CAPACITANCE=   0     
*
* Analog/Digital interface power supply subcircuits
*

X$DIGIFPWR 0 DIGIFPWR

**** 05/16/20 19:04:03 *********** Evaluation PSpice (Nov 1999) **************

 * C:\Users\naiar\OneDrive\Documentos\NAIARA\ESTUDIO\TCO\pract\pract6\pract6.1.sch


 ****     Diode MODEL PARAMETERS


******************************************************************************




               D74CLMP         D74             
          IS    1.000000E-15  100.000000E-18 
          RS    2              25            
         CJO    2.000000E-12    2.000000E-12 


**** 05/16/20 19:04:03 *********** Evaluation PSpice (Nov 1999) **************

 * C:\Users\naiar\OneDrive\Documentos\NAIARA\ESTUDIO\TCO\pract\pract6\pract6.1.sch


 ****     BJT MODEL PARAMETERS


******************************************************************************




               Q74             
               NPN             
          IS  100.000000E-18 
          BF   49            
          NF    1            
         ISE  100.000000E-18 
          BR     .03         
          NR    1            
         ISC  400.000000E-18 
          RB   50            
          RC   20            
         CJE    1.000000E-12 
         VJE     .9          
         MJE     .5          
         CJC  500.000000E-15 
         VJC     .8          
         CJS    3.000000E-12 
         VJS     .7          
         MJS     .33         
          TF  200.000000E-12 
          TR   10.000000E-09 
          CN    2.42         
           D     .87         


**** 05/16/20 19:04:03 *********** Evaluation PSpice (Nov 1999) **************

 * C:\Users\naiar\OneDrive\Documentos\NAIARA\ESTUDIO\TCO\pract\pract6\pract6.1.sch


 ****     Digital Input MODEL PARAMETERS


******************************************************************************




               DIN74           
        FILE DSO_DTOA        
      FORMAT    6            
    TIMESTEP  100.000000E-12 
      S0NAME 0               
       S0TSW    3.500000E-09 
       S0RLO    7.13         
       S0RHI  389            
      S1NAME 1               
       S1TSW    5.500000E-09 
       S1RLO  467            
       S1RHI  200            
      S2NAME X               
       S2TSW    3.500000E-09 
       S2RLO   42.9          
       S2RHI  116            
      S3NAME R               
       S3TSW    3.500000E-09 
       S3RLO   42.9          
       S3RHI  116            
      S4NAME F               
       S4TSW    3.500000E-09 
       S4RLO   42.9          
       S4RHI  116            
      S5NAME Z               
       S5TSW    3.500000E-09 
       S5RLO  200.000000E+03 
       S5RHI  200.000000E+03 


**** 05/16/20 19:04:03 *********** Evaluation PSpice (Nov 1999) **************

 * C:\Users\naiar\OneDrive\Documentos\NAIARA\ESTUDIO\TCO\pract\pract6\pract6.1.sch


 ****     Digital Output MODEL PARAMETERS


******************************************************************************




               DO74            
        FILE DSO_ATOD        
      FORMAT    6            
     CHGONLY    1            
    TIMESTEP  100.000000E-12 
      S0NAME X               
       S0VHI    2            
       S0VLO     .8          
      S1NAME 0               
       S1VHI     .8          
       S1VLO   -1.5          
      S2NAME R               
       S2VHI    1.4          
       S2VLO     .8          
      S3NAME R               
       S3VHI    2            
       S3VLO    1.3          
      S4NAME X               
       S4VHI    2            
       S4VLO     .8          
      S5NAME 1               
       S5VHI    7            
       S5VLO    2            
      S6NAME F               
       S6VHI    2            
       S6VLO    1.3          
      S7NAME F               
       S7VHI    1.4          
       S7VLO     .8          


**** 05/16/20 19:04:03 *********** Evaluation PSpice (Nov 1999) **************

 * C:\Users\naiar\OneDrive\Documentos\NAIARA\ESTUDIO\TCO\pract\pract6\pract6.1.sch


 ****     Digital Gate MODEL PARAMETERS


******************************************************************************




               D_04            
      TPLHMN    4.800000E-09 
      TPLHTY   12.000000E-09 
      TPLHMX   22.000000E-09 
      TPHLMN    3.200000E-09 
      TPHLTY    8.000000E-09 
      TPHLMX   15.000000E-09 


**** 05/16/20 19:04:03 *********** Evaluation PSpice (Nov 1999) **************

 * C:\Users\naiar\OneDrive\Documentos\NAIARA\ESTUDIO\TCO\pract\pract6\pract6.1.sch


 ****     Digital IO  MODEL PARAMETERS


******************************************************************************




               IO_STD          
        DRVL  104            
        DRVH   96.4          
       AtoD1 AtoD_STD        
       AtoD2 AtoD_STD_NX     
       AtoD3 AtoD_STD        
       AtoD4 AtoD_STD_NX     
       DtoA1 DtoA_STD        
       DtoA2 DtoA_STD        
       DtoA3 DtoA_STD        
       DtoA4 DtoA_STD        
      TSWHL1    1.373000E-09 
      TSWHL2    1.346000E-09 
      TSWHL3    1.511000E-09 
      TSWHL4    1.487000E-09 
      TSWLH1    3.382000E-09 
      TSWLH2    3.424000E-09 
      TSWLH3    3.517000E-09 
      TSWLH4    3.564000E-09 
       TPWRT  100.000000E+03 


**** 05/16/20 19:04:03 *********** Evaluation PSpice (Nov 1999) **************

 * C:\Users\naiar\OneDrive\Documentos\NAIARA\ESTUDIO\TCO\pract\pract6\pract6.1.sch


 ****     SMALL SIGNAL BIAS SOLUTION       TEMPERATURE =   27.000 DEG C


******************************************************************************



 NODE   VOLTAGE     NODE   VOLTAGE     NODE   VOLTAGE     NODE   VOLTAGE


($G_DGND)    0.0000                   ($G_DPWR)    5.0000                       

($N_0001)    0.0000                   ($N_0002)    3.5102                       

($N_0003)    5.0000                   (X$$N_0001_AtoD1.1)     .0915             

(X$$N_0001_AtoD1.2)     .0457         (X$$N_0001_AtoD1.3)     .8277         



 DGTL NODE : STATE  DGTL NODE : STATE  DGTL NODE : STATE  DGTL NODE : STATE


($N_0002$DtoA) : 1                    ($N_0001$AtoD) : 0                    




    VOLTAGE SOURCE CURRENTS
    NAME         CURRENT

    V_Vi         1.043E-03
    V_Vcc       -6.772E-05
    X$DIGIFPWR.VDPWR  -8.497E-03
    X$DIGIFPWR.VDGND  -9.804E-04

    TOTAL POWER DISSIPATION   4.28E-02  WATTS


**** 05/16/20 19:04:03 *********** Evaluation PSpice (Nov 1999) **************

 * C:\Users\naiar\OneDrive\Documentos\NAIARA\ESTUDIO\TCO\pract\pract6\pract6.1.sch


 ****     OPERATING POINT INFORMATION      TEMPERATURE =   27.000 DEG C


******************************************************************************






**** DIODES


NAME         X$$N_0001_AtoD1.D0      X$$N_0001_AtoD1.D1    
MODEL        D74CLMP                 D74                   
ID           0.00E+00                4.62E-14             
VD           0.00E+00                4.57E-02             
REQ          9.63E+11                9.78E+11             
CAP          2.00E-12                2.05E-12             

NAME         X$$N_0001_AtoD1.D2    
MODEL        D74                   
ID           4.62E-14             
VD           4.57E-02             
REQ          9.78E+11             
CAP          2.05E-12             


**** BIPOLAR JUNCTION TRANSISTORS


NAME         X$$N_0001_AtoD1.Q1    
MODEL        Q74                   
IB           1.04E-03             
IC          -4.62E-14             
VBE          8.28E-01             
VBC          7.36E-01             
VCE          9.15E-02             
BETADC      -4.43E-11             
GM           3.95E-02             
RPI          1.20E+03             
RX           5.00E+01             
RO           8.44E+02             
CBE          1.01E-11             
CBC          1.26E-11             
CJS          2.88E-12             
BETAAC       4.75E+01             
CBX/CBX2     0.00E+00             
FT/FT2       2.77E+08             



          JOB CONCLUDED

          TOTAL JOB TIME             .02
