
**** 05/16/20 18:03:36 *********** Evaluation PSpice (Nov 1999) **************

 * C:\Users\naiar\OneDrive\Documentos\NAIARA\ESTUDIO\TCO\pract\pract5\pract5.3.sch


 ****     CIRCUIT DESCRIPTION


******************************************************************************




* Schematics Version 9.1 - Web Update 1
* Sat May 16 18:03:36 2020



** Analysis setup **
.tran 1n 100n
.OP 
.LIB "C:\Users\naiar\OneDrive\Documentos\NAIARA\ESTUDIO\TCO\pract\pract5\pract5.3.lib"


* From [PSPICE NETLIST] section of pspiceev.ini:
.lib "nom.lib"

.INC "pract5.3.net"

**** INCLUDING pract5.3.net ****
* Schematics Netlist *



R_RD         $N_0002 $N_0001  90k  
V_VDD         $N_0001 0 5V
M_M1         $N_0002 $N_0003 0 0 MbreakN-X  
+ L=1u  
+ W=2u         
M_M2         $N_0002 $N_0004 0 0 MbreakN-X1  
+ L=1u  
+ W=2u         
V_Va         $N_0003 0  
+PULSE 0V 5V 10n 2n 2n 40n 100n
V_Vb         $N_0004 0  
+PULSE 0V 5V 30n 2n 2n 40n 100n

**** RESUMING pract5.3.cir ****
.INC "pract5.3.als"



**** INCLUDING pract5.3.als ****
* Schematics Aliases *

.ALIASES
R_RD            RD(1=$N_0002 2=$N_0001 )
V_VDD           VDD(+=$N_0001 -=0 )
M_M1            M1(d=$N_0002 g=$N_0003 s=0 s=0 )
M_M2            M2(d=$N_0002 g=$N_0004 s=0 s=0 )
V_Va            Va(+=$N_0003 -=0 )
V_Vb            Vb(+=$N_0004 -=0 )
.ENDALIASES


**** RESUMING pract5.3.cir ****
.probe


.END

Unable to find index file pract5.3.ind for library file pract5.3.lib
Making new index file pract5.3.ind for library file pract5.3.lib
Index has 2 entries from 1 file(s).

**** 05/16/20 18:03:36 *********** Evaluation PSpice (Nov 1999) **************

 * C:\Users\naiar\OneDrive\Documentos\NAIARA\ESTUDIO\TCO\pract\pract5\pract5.3.sch


 ****     MOSFET MODEL PARAMETERS


******************************************************************************




               MbreakN-X       MbreakN-X1      
               NMOS            NMOS            
       LEVEL    1               1            
           L  100.000000E-06  100.000000E-06 
           W  100.000000E-06  100.000000E-06 
         VTO    1               1            
          KP   50.000000E-06   50.000000E-06 
       GAMMA    0               0            
         PHI     .6              .6          
      LAMBDA    0               0            
          IS   10.000000E-15   10.000000E-15 
          JS    0               0            
          PB     .8              .8          
        PBSW     .8              .8          
          CJ    0               0            
        CJSW    0               0            
        CGSO    0               0            
        CGDO    0               0            
        CGBO    0               0            
         TOX    0               0            
          XJ    0               0            
       UCRIT   10.000000E+03   10.000000E+03 
      DIOMOD    1               1            
         VFB    0               0            
        LETA    0               0            
        WETA    0               0            
          U0    0               0            
        TEMP    0               0            
         VDD    0               0            
       XPART    0               0            


**** 05/16/20 18:03:36 *********** Evaluation PSpice (Nov 1999) **************

 * C:\Users\naiar\OneDrive\Documentos\NAIARA\ESTUDIO\TCO\pract\pract5\pract5.3.sch


 ****     SMALL SIGNAL BIAS SOLUTION       TEMPERATURE =   27.000 DEG C


******************************************************************************



 NODE   VOLTAGE     NODE   VOLTAGE     NODE   VOLTAGE     NODE   VOLTAGE


($N_0001)    5.0000                   ($N_0002)    5.0000                       

($N_0003)    0.0000                   ($N_0004)    0.0000                   




    VOLTAGE SOURCE CURRENTS
    NAME         CURRENT

    V_VDD       -1.002E-11
    V_Va         0.000E+00
    V_Vb         0.000E+00

    TOTAL POWER DISSIPATION   5.01E-11  WATTS


**** 05/16/20 18:03:36 *********** Evaluation PSpice (Nov 1999) **************

 * C:\Users\naiar\OneDrive\Documentos\NAIARA\ESTUDIO\TCO\pract\pract5\pract5.3.sch


 ****     OPERATING POINT INFORMATION      TEMPERATURE =   27.000 DEG C


******************************************************************************






**** MOSFETS


NAME         M_M1        M_M2      
MODEL        MbreakN-X   MbreakN-X1
ID           5.01E-12    5.01E-12 
VGS          0.00E+00    0.00E+00 
VDS          5.00E+00    5.00E+00 
VBS          0.00E+00    0.00E+00 
VTH          1.00E+00    1.00E+00 
VDSAT        0.00E+00    0.00E+00 
Lin0/Sat1   -1.00E+00   -1.00E+00 
if          -1.00E+00   -1.00E+00 
ir          -1.00E+00   -1.00E+00 
TAU         -1.00E+00   -1.00E+00 
GM           0.00E+00    0.00E+00 
GDS          0.00E+00    0.00E+00 
GMB          0.00E+00    0.00E+00 
CBD          0.00E+00    0.00E+00 
CBS          0.00E+00    0.00E+00 
CGSOV        0.00E+00    0.00E+00 
CGDOV        0.00E+00    0.00E+00 
CGBOV        0.00E+00    0.00E+00 
CGS          0.00E+00    0.00E+00 
CGD          0.00E+00    0.00E+00 
CGB          0.00E+00    0.00E+00 
**** 05/16/20 18:03:36 *********** Evaluation PSpice (Nov 1999) **************

 * C:\Users\naiar\OneDrive\Documentos\NAIARA\ESTUDIO\TCO\pract\pract5\pract5.3.sch


 ****     INITIAL TRANSIENT SOLUTION       TEMPERATURE =   27.000 DEG C


******************************************************************************



 NODE   VOLTAGE     NODE   VOLTAGE     NODE   VOLTAGE     NODE   VOLTAGE


($N_0001)    5.0000                   ($N_0002)    5.0000                       

($N_0003)    0.0000                   ($N_0004)    0.0000                   




    VOLTAGE SOURCE CURRENTS
    NAME         CURRENT

    V_VDD       -1.002E-11
    V_Va         0.000E+00
    V_Vb         0.000E+00

    TOTAL POWER DISSIPATION   5.01E-11  WATTS



          JOB CONCLUDED

          TOTAL JOB TIME             .02
