
**** 05/16/20 20:32:58 *********** Evaluation PSpice (Nov 1999) **************

 * C:\Users\naiar\OneDrive\Documentos\NAIARA\ESTUDIO\TCO\pract\pract5\pract5.1.sch


 ****     CIRCUIT DESCRIPTION


******************************************************************************




* Schematics Version 9.1 - Web Update 1
* Sat May 16 20:32:57 2020



** Analysis setup **
.DC LIN V_Vi 0V 5V 0.01V 
.OP 
.LIB "C:\Users\naiar\OneDrive\Documentos\NAIARA\ESTUDIO\TCO\pract\pract4\pract4.1.lib"
.LIB "C:\Users\naiar\OneDrive\Documentos\NAIARA\ESTUDIO\TCO\pract\pract5\pract5.1.lib"


* From [PSPICE NETLIST] section of pspiceev.ini:
.lib "nom.lib"

.INC "pract5.1.net"

**** INCLUDING pract5.1.net ****
* Schematics Netlist *



V_Vi         $N_0001 0 0V
V_VDD         $N_0002 0 5V
R_RD         Vo $N_0002  200k  
M_M1         Vo $N_0001 0 0 MbreakN-X  
+ L=1u  
+ W=2u         

**** RESUMING pract5.1.cir ****
.INC "pract5.1.als"



**** INCLUDING pract5.1.als ****
* Schematics Aliases *

.ALIASES
V_Vi            Vi(+=$N_0001 -=0 )
V_VDD           VDD(+=$N_0002 -=0 )
R_RD            RD(1=Vo 2=$N_0002 )
M_M1            M1(d=Vo g=$N_0001 s=0 s=0 )
_    _(Vo=Vo)
.ENDALIASES


**** RESUMING pract5.1.cir ****
.probe


.END

**** 05/16/20 20:32:58 *********** Evaluation PSpice (Nov 1999) **************

 * C:\Users\naiar\OneDrive\Documentos\NAIARA\ESTUDIO\TCO\pract\pract5\pract5.1.sch


 ****     MOSFET MODEL PARAMETERS


******************************************************************************




               MbreakN-X       
               NMOS            
       LEVEL    1            
           L  100.000000E-06 
           W  100.000000E-06 
         VTO    2            
          KP    2.000000E-03 
       GAMMA    0            
         PHI     .6          
      LAMBDA    0            
          IS   10.000000E-15 
          JS    0            
          PB     .8          
        PBSW     .8          
          CJ    0            
        CJSW    0            
        CGSO    0            
        CGDO    0            
        CGBO    0            
         TOX    0            
          XJ    0            
       UCRIT   10.000000E+03 
      DIOMOD    1            
         VFB    0            
        LETA    0            
        WETA    0            
          U0    0            
        TEMP    0            
         VDD    0            
       XPART    0            


**** 05/16/20 20:32:58 *********** Evaluation PSpice (Nov 1999) **************

 * C:\Users\naiar\OneDrive\Documentos\NAIARA\ESTUDIO\TCO\pract\pract5\pract5.1.sch


 ****     SMALL SIGNAL BIAS SOLUTION       TEMPERATURE =   27.000 DEG C


******************************************************************************



 NODE   VOLTAGE     NODE   VOLTAGE     NODE   VOLTAGE     NODE   VOLTAGE


(   Vo)    5.0000  ($N_0001)    0.0000                   ($N_0002)    5.0000    




    VOLTAGE SOURCE CURRENTS
    NAME         CURRENT

    V_Vi         0.000E+00
    V_VDD       -5.010E-12

    TOTAL POWER DISSIPATION   2.51E-11  WATTS


**** 05/16/20 20:32:58 *********** Evaluation PSpice (Nov 1999) **************

 * C:\Users\naiar\OneDrive\Documentos\NAIARA\ESTUDIO\TCO\pract\pract5\pract5.1.sch


 ****     OPERATING POINT INFORMATION      TEMPERATURE =   27.000 DEG C


******************************************************************************






**** MOSFETS


NAME         M_M1      
MODEL        MbreakN-X 
ID           5.01E-12 
VGS          0.00E+00 
VDS          5.00E+00 
VBS          0.00E+00 
VTH          2.00E+00 
VDSAT        0.00E+00 
Lin0/Sat1   -1.00E+00 
if          -1.00E+00 
ir          -1.00E+00 
TAU         -1.00E+00 
GM           0.00E+00 
GDS          0.00E+00 
GMB          0.00E+00 
CBD          0.00E+00 
CBS          0.00E+00 
CGSOV        0.00E+00 
CGDOV        0.00E+00 
CGBOV        0.00E+00 
CGS          0.00E+00 
CGD          0.00E+00 
CGB          0.00E+00 

          JOB CONCLUDED

          TOTAL JOB TIME             .06
